Time Stamp,ID,Extended,Dir,Bus,LEN,D1,D2,D3,D4,D5,D6,D7,D8
6821511,000000FD,false,Rx,0,8,78,D9,1F,80,00,00,03,00,
6841800,000000FD,false,Rx,0,8,34,DA,1F,80,00,00,03,00,
6861203,000000FD,false,Rx,0,8,1B,DB,1F,80,00,00,03,00,
6881920,000000FD,false,Rx,0,8,82,DC,1F,80,00,00,03,00,
6901441,000000FD,false,Rx,0,8,0B,DD,1F,80,00,00,03,00,
6921460,000000FD,false,Rx,0,8,F4,DE,1F,80,00,00,03,00,
6941208,000000FD,false,Rx,0,8,63,DF,1F,80,00,00,03,00,
6961510,000000FD,false,Rx,0,8,19,D0,1F,80,00,00,03,00,
6981220,000000FD,false,Rx,0,8,13,D1,1F,80,00,00,03,00,
7001920,000000FD,false,Rx,0,8,DC,D2,1F,80,00,00,03,00,
7022010,000000FD,false,Rx,0,8,A9,D3,1F,80,00,00,03,00,
7041692,000000FD,false,Rx,0,8,3F,D4,1F,80,00,00,03,00,
7061301,000000FD,false,Rx,0,8,A5,D5,1F,80,00,00,03,00,
7081488,000000FD,false,Rx,0,8,B7,D6,1F,80,00,00,03,00,
7101474,000000FD,false,Rx,0,8,8D,D7,1F,80,00,00,03,00,
7121735,000000FD,false,Rx,0,8,4A,D8,1F,80,00,00,03,00,
7141400,000000FD,false,Rx,0,8,78,D9,1F,80,00,00,03,00,
7162101,000000FD,false,Rx,0,8,34,DA,1F,80,00,00,03,00,
7181535,000000FD,false,Rx,0,8,1B,DB,1F,80,00,00,03,00,
7202261,000000FD,false,Rx,0,8,82,DC,1F,80,00,00,03,00,
7221960,000000FD,false,Rx,0,8,0B,DD,1F,80,00,00,03,00,
7243083,000000FD,false,Rx,0,8,F4,DE,1F,80,00,00,03,00,
7261713,000000FD,false,Rx,0,8,63,DF,1F,80,00,00,03,00,
7283198,000000FD,false,Rx,0,8,19,D0,1F,80,00,00,03,00,
7301940,000000FD,false,Rx,0,8,13,D1,1F,80,00,00,03,00,
7322592,000000FD,false,Rx,0,8,DC,D2,1F,80,00,00,03,00,
7342002,000000FD,false,Rx,0,8,A9,D3,1F,80,00,00,03,00,
7363020,000000FD,false,Rx,0,8,3F,D4,1F,80,00,00,03,00,
7382079,000000FD,false,Rx,0,8,A5,D5,1F,80,00,00,03,00,
7402918,000000FD,false,Rx,0,8,B7,D6,1F,80,00,00,03,00,
7422091,000000FD,false,Rx,0,8,8D,D7,1F,80,00,00,03,00,
7442784,000000FD,false,Rx,0,8,4A,D8,1F,80,00,00,03,00,
7462323,000000FD,false,Rx,0,8,78,D9,1F,80,00,00,03,00,
7483170,000000FD,false,Rx,0,8,34,DA,1F,80,00,00,03,00,
7502259,000000FD,false,Rx,0,8,1B,DB,1F,80,00,00,03,00,
7522677,000000FD,false,Rx,0,8,82,DC,1F,80,00,00,03,00,
7542479,000000FD,false,Rx,0,8,0B,DD,1F,80,00,00,03,00,
7562943,000000FD,false,Rx,0,8,F4,DE,1F,80,00,00,03,00,
7582411,000000FD,false,Rx,0,8,63,DF,1F,80,00,00,03,00,
7602467,000000FD,false,Rx,0,8,19,D0,1F,80,00,00,03,00,
7622938,000000FD,false,Rx,0,8,13,D1,1F,80,00,00,03,00,
7642973,000000FD,false,Rx,0,8,DC,D2,1F,80,00,00,03,00,
7662949,000000FD,false,Rx,0,8,A9,D3,1F,80,00,00,03,00,
7683397,000000FD,false,Rx,0,8,3F,D4,1F,80,00,00,03,00,
7702618,000000FD,false,Rx,0,8,A5,D5,1F,80,00,00,03,00,
7722831,000000FD,false,Rx,0,8,B7,D6,1F,80,00,00,03,00,
7742749,000000FD,false,Rx,0,8,8D,D7,1F,80,00,00,03,00,
7764317,000000FD,false,Rx,0,8,4A,D8,1F,80,00,00,03,00,
7782861,000000FD,false,Rx,0,8,78,D9,1F,80,00,00,03,00,
7803143,000000FD,false,Rx,0,8,34,DA,1F,80,00,00,03,00,
7822920,000000FD,false,Rx,0,8,1B,DB,1F,80,00,00,03,00,
7843255,000000FD,false,Rx,0,8,82,DC,1F,80,00,00,03,00,
7863025,000000FD,false,Rx,0,8,0B,DD,1F,80,00,00,03,00,
7883182,000000FD,false,Rx,0,8,F4,DE,1F,80,00,00,03,00,
7903214,000000FD,false,Rx,0,8,63,DF,1F,80,00,00,03,00,
7923437,000000FD,false,Rx,0,8,19,D0,1F,80,00,00,03,00,
7943107,000000FD,false,Rx,0,8,13,D1,1F,80,00,00,03,00,
7963911,000000FD,false,Rx,0,8,DC,D2,1F,80,00,00,03,00,
7983315,000000FD,false,Rx,0,8,A9,D3,1F,80,00,00,03,00,
8003246,000000FD,false,Rx,0,8,3F,D4,1F,80,00,00,03,00,
8023506,000000FD,false,Rx,0,8,A5,D5,1F,80,00,00,03,00,
8043494,000000FD,false,Rx,0,8,B7,D6,1F,80,00,00,03,00,
8063372,000000FD,false,Rx,0,8,8D,D7,1F,80,00,00,03,00,
8083671,000000FD,false,Rx,0,8,4A,D8,1F,80,00,00,03,00,
8103612,000000FD,false,Rx,0,8,78,D9,1F,80,00,00,03,00,
8124544,000000FD,false,Rx,0,8,34,DA,1F,80,00,00,03,00,
8144097,000000FD,false,Rx,0,8,1B,DB,1F,80,00,00,03,00,
8164429,000000FD,false,Rx,0,8,82,DC,1F,80,00,00,03,00,
8184081,000000FD,false,Rx,0,8,0B,DD,1F,80,00,00,03,00,
8204057,000000FD,false,Rx,0,8,F4,DE,1F,80,00,00,03,00,
8224399,000000FD,false,Rx,0,8,63,DF,1F,80,00,00,03,00,
8244027,000000FD,false,Rx,0,8,19,D0,1F,80,00,00,03,00,
8264157,000000FD,false,Rx,0,8,13,D1,1F,80,00,00,03,00,
8284177,000000FD,false,Rx,0,8,DC,D2,1F,80,00,00,03,00,
8304160,000000FD,false,Rx,0,8,A9,D3,1F,80,00,00,03,00,
8324398,000000FD,false,Rx,0,8,3F,D4,1F,80,00,00,03,00,
8344168,000000FD,false,Rx,0,8,A5,D5,1F,80,00,00,03,00,
8364619,000000FD,false,Rx,0,8,B7,D6,1F,80,00,00,03,00,
8384414,000000FD,false,Rx,0,8,8D,D7,1F,80,00,00,03,00,
8404508,000000FD,false,Rx,0,8,4A,D8,1F,80,00,00,03,00,
8424626,000000FD,false,Rx,0,8,78,D9,1F,80,00,00,03,00,
8444609,000000FD,false,Rx,0,8,34,DA,1F,80,00,00,03,00,
8465447,000000FD,false,Rx,0,8,1B,DB,1F,80,00,00,03,00,
8484396,000000FD,false,Rx,0,8,82,DC,1F,80,00,00,03,00,
8504417,000000FD,false,Rx,0,8,0B,DD,1F,80,00,00,03,00,
8525247,000000FD,false,Rx,0,8,F4,DE,1F,80,00,00,03,00,
8544503,000000FD,false,Rx,0,8,63,DF,1F,80,00,00,03,00,
8564529,000000FD,false,Rx,0,8,19,D0,1F,80,00,00,03,00,
8585090,000000FD,false,Rx,0,8,13,D1,1F,80,00,00,03,00,
8605219,000000FD,false,Rx,0,8,DC,D2,1F,80,00,00,03,00,
8625153,000000FD,false,Rx,0,8,A9,D3,1F,80,00,00,03,00,
8646607,000000FD,false,Rx,0,8,3F,D4,1F,80,00,00,03,00,
8665442,000000FD,false,Rx,0,8,A5,D5,1F,80,00,00,03,00,
8685213,000000FD,false,Rx,0,8,B7,D6,1F,80,00,00,03,00,
8706647,000000FD,false,Rx,0,8,8D,D7,1F,80,00,00,03,00,
8725191,000000FD,false,Rx,0,8,4A,D8,1F,80,00,00,03,00,
8745144,000000FD,false,Rx,0,8,78,D9,1F,80,00,00,03,00,
8765957,000000FD,false,Rx,0,8,34,DA,1F,80,00,00,03,00,
8785292,000000FD,false,Rx,0,8,1B,DB,1F,80,00,00,03,00,
8805290,000000FD,false,Rx,0,8,82,DC,1F,80,00,00,03,00,
8827582,000000FD,false,Rx,0,8,0B,DD,1F,80,00,00,03,00,
8845776,000000FD,false,Rx,0,8,F4,DE,1F,80,00,00,03,00,
8865807,000000FD,false,Rx,0,8,63,DF,1F,80,00,00,03,00,
8886089,000000FD,false,Rx,0,8,19,D0,1F,80,00,00,03,00,
8906446,000000FD,false,Rx,0,8,13,D1,1F,80,00,00,03,00,
8926143,000000FD,false,Rx,0,8,DC,D2,1F,80,00,00,03,00,
8946185,000000FD,false,Rx,0,8,A9,D3,1F,80,00,00,03,00,
8966852,000000FD,false,Rx,0,8,3F,D4,1F,80,00,00,03,00,
8986640,000000FD,false,Rx,0,8,A5,D5,1F,80,00,00,03,00,
9006809,000000FD,false,Rx,0,8,B7,D6,1F,80,00,00,03,00,
9026804,000000FD,false,Rx,0,8,8D,D7,1F,80,00,00,03,00,
9047006,000000FD,false,Rx,0,8,4A,D8,1F,80,00,00,03,00,
9066934,000000FD,false,Rx,0,8,78,D9,1F,80,00,00,03,00,
9087496,000000FD,false,Rx,0,8,34,DA,1F,80,00,00,03,00,
9107070,000000FD,false,Rx,0,8,1B,DB,1F,80,00,00,03,00,
9127342,000000FD,false,Rx,0,8,82,DC,1F,80,00,00,03,00,
9147181,000000FD,false,Rx,0,8,0B,DD,1F,80,00,00,03,00,
9167315,000000FD,false,Rx,0,8,F4,DE,1F,80,00,00,03,00,
9187732,000000FD,false,Rx,0,8,63,DF,1F,80,00,00,03,00,
9207701,000000FD,false,Rx,0,8,19,D0,1F,80,00,00,03,00,
9227626,000000FD,false,Rx,0,8,13,D1,1F,80,00,00,03,00,
9247777,000000FD,false,Rx,0,8,DC,D2,1F,80,00,00,03,00,
9268262,000000FD,false,Rx,0,8,A9,D3,1F,80,00,00,03,00,
9288309,000000FD,false,Rx,0,8,3F,D4,1F,80,00,00,03,00,
9308345,000000FD,false,Rx,0,8,A5,D5,1F,80,00,00,03,00,
9327871,000000FD,false,Rx,0,8,B7,D6,1F,80,00,00,03,00,
9347965,000000FD,false,Rx,0,8,8D,D7,1F,80,00,00,03,00,
9368546,000000FD,false,Rx,0,8,4A,D8,1F,80,00,00,03,00,
9388749,000000FD,false,Rx,0,8,78,D9,1F,80,00,00,03,00,
9406823,000000FD,false,Rx,0,8,34,DA,1F,80,00,00,03,00,
9426881,000000FD,false,Rx,0,8,1B,DB,1F,80,00,00,03,00,
9448794,000000FD,false,Rx,0,8,82,DC,1F,80,00,00,03,00,
9467095,000000FD,false,Rx,0,8,0B,DD,1F,80,00,00,03,00,
9487184,000000FD,false,Rx,0,8,F4,DE,1F,80,00,00,03,00,
9507408,000000FD,false,Rx,0,8,63,DF,1F,80,00,00,03,00,
9527296,000000FD,false,Rx,0,8,19,D0,1F,80,00,00,03,00,
9547208,000000FD,false,Rx,0,8,13,D1,1F,80,00,00,03,00,
9567287,000000FD,false,Rx,0,8,DC,D2,1F,80,00,00,03,00,
9587318,000000FD,false,Rx,0,8,A9,D3,1F,80,00,00,03,00,
9606979,000000FD,false,Rx,0,8,3F,D4,1F,80,00,00,03,00,
9627636,000000FD,false,Rx,0,8,A5,D5,1F,80,00,00,03,00,
9647793,000000FD,false,Rx,0,8,B7,D6,1F,80,00,00,03,00,
9667365,000000FD,false,Rx,0,8,8D,D7,1F,80,00,00,03,00,
9687385,000000FD,false,Rx,0,8,4A,D8,1F,80,00,00,03,00,
9707105,000000FD,false,Rx,0,8,78,D9,1F,80,00,00,03,00,
9727312,000000FD,false,Rx,0,8,34,DA,1F,80,00,00,03,00,
9747373,000000FD,false,Rx,0,8,1B,DB,1F,80,00,00,03,00,
9767213,000000FD,false,Rx,0,8,82,DC,1F,80,00,00,03,00,
9787537,000000FD,false,Rx,0,8,0B,DD,1F,80,00,00,03,00,
9807316,000000FD,false,Rx,0,8,F4,DE,1F,80,00,00,03,00,
9827527,000000FD,false,Rx,0,8,63,DF,1F,80,00,00,03,00,
9847439,000000FD,false,Rx,0,8,19,D0,1F,80,00,00,03,00,
9867279,000000FD,false,Rx,0,8,13,D1,1F,80,00,00,03,00,
9887917,000000FD,false,Rx,0,8,DC,D2,1F,80,00,00,03,00,
9907383,000000FD,false,Rx,0,8,A9,D3,1F,80,00,00,03,00,
9927588,000000FD,false,Rx,0,8,3F,D4,1F,80,00,00,03,00,
9948699,000000FD,false,Rx,0,8,A5,D5,1F,80,00,00,03,00,
9967512,000000FD,false,Rx,0,8,B7,D6,1F,80,00,00,03,00,
9988010,000000FD,false,Rx,0,8,8D,D7,1F,80,00,00,03,00,
10008007,000000FD,false,Rx,0,8,4A,D8,1F,80,00,00,03,00,
10028274,000000FD,false,Rx,0,8,78,D9,1F,80,00,00,03,00,
10048157,000000FD,false,Rx,0,8,34,DA,1F,80,00,00,03,00,
10068219,000000FD,false,Rx,0,8,1B,DB,1F,80,00,00,03,00,
10088346,000000FD,false,Rx,0,8,82,DC,1F,80,00,00,03,00,
10108819,000000FD,false,Rx,0,8,0B,DD,1F,80,00,00,03,00,
10128077,000000FD,false,Rx,0,8,F4,DE,1F,80,00,00,03,00,
10148987,000000FD,false,Rx,0,8,63,DF,1F,80,00,00,03,00,
10168429,000000FD,false,Rx,0,8,19,D0,1F,80,00,00,03,00,
10189177,000000FD,false,Rx,0,8,13,D1,1F,80,00,00,03,00,
10208181,000000FD,false,Rx,0,8,DC,D2,1F,80,00,00,03,00,
10228418,000000FD,false,Rx,0,8,A9,D3,1F,80,00,00,03,00,
10248220,000000FD,false,Rx,0,8,3F,D4,1F,80,00,00,03,00,
10268569,000000FD,false,Rx,0,8,A5,D5,1F,80,00,00,03,00,
10289187,000000FD,false,Rx,0,8,B7,D6,1F,80,00,00,03,00,
10309031,000000FD,false,Rx,0,8,8D,D7,1F,80,00,00,03,00,
10328294,000000FD,false,Rx,0,8,4A,D8,1F,80,00,00,03,00,
10348840,000000FD,false,Rx,0,8,78,D9,1F,80,00,00,03,00,
10369993,000000FD,false,Rx,0,8,34,DA,1F,80,00,00,03,00,
10388664,000000FD,false,Rx,0,8,1B,DB,1F,80,00,00,03,00,
10408419,000000FD,false,Rx,0,8,82,DC,1F,80,00,00,03,00,
10428701,000000FD,false,Rx,0,8,0B,DD,1F,80,00,00,03,00,
10448534,000000FD,false,Rx,0,8,F4,DE,1F,80,00,00,03,00,
10469037,000000FD,false,Rx,0,8,63,DF,1F,80,00,00,03,00,
10488598,000000FD,false,Rx,0,8,19,D0,1F,80,00,00,03,00,
10508956,000000FD,false,Rx,0,8,13,D1,1F,80,00,00,03,00,
10528703,000000FD,false,Rx,0,8,DC,D2,1F,80,00,00,03,00,
10549035,000000FD,false,Rx,0,8,A9,D3,1F,80,00,00,03,00,
10568768,000000FD,false,Rx,0,8,3F,D4,1F,80,00,00,03,00,
10589199,000000FD,false,Rx,0,8,A5,D5,1F,80,00,00,03,00,
10608937,000000FD,false,Rx,0,8,B7,D6,1F,80,00,00,03,00,
10629410,000000FD,false,Rx,0,8,8D,D7,1F,80,00,00,03,00,
10648933,000000FD,false,Rx,0,8,4A,D8,1F,80,00,00,03,00,
10669148,000000FD,false,Rx,0,8,78,D9,1F,80,00,00,03,00,
10689050,000000FD,false,Rx,0,8,34,DA,1F,80,00,00,03,00,
10709357,000000FD,false,Rx,0,8,1B,DB,1F,80,00,00,03,00,
10729093,000000FD,false,Rx,0,8,82,DC,1F,80,00,00,03,00,
10749468,000000FD,false,Rx,0,8,0B,DD,1F,80,00,00,03,00,
10769189,000000FD,false,Rx,0,8,F4,DE,1F,80,00,00,03,00,
10790047,000000FD,false,Rx,0,8,63,DF,1F,80,00,00,03,00,
10809325,000000FD,false,Rx,0,8,19,D0,1F,80,00,00,03,00,
10829805,000000FD,false,Rx,0,8,13,D1,1F,80,00,00,03,00,
10849771,000000FD,false,Rx,0,8,DC,D2,1F,80,00,00,03,00,
10869829,000000FD,false,Rx,0,8,A9,D3,1F,80,00,00,03,00,
10889654,000000FD,false,Rx,0,8,3F,D4,1F,80,00,00,03,00,
10909929,000000FD,false,Rx,0,8,A5,D5,1F,80,00,00,03,00,
10929553,000000FD,false,Rx,0,8,B7,D6,1F,80,00,00,03,00,
10949731,000000FD,false,Rx,0,8,8D,D7,1F,80,00,00,03,00,
10969693,000000FD,false,Rx,0,8,4A,D8,1F,80,00,00,03,00,
10989932,000000FD,false,Rx,0,8,78,D9,1F,80,00,00,03,00,
11009713,000000FD,false,Rx,0,8,34,DA,1F,80,00,00,03,00,
11030096,000000FD,false,Rx,0,8,1B,DB,1F,80,00,00,03,00,
11049853,000000FD,false,Rx,0,8,82,DC,1F,80,00,00,03,00,
11070663,000000FD,false,Rx,0,8,0B,DD,1F,80,00,00,03,00,
11089807,000000FD,false,Rx,0,8,F4,DE,1F,80,00,00,03,00,
11110779,000000FD,false,Rx,0,8,63,DF,1F,80,00,00,03,00,
11130014,000000FD,false,Rx,0,8,19,D0,1F,80,00,00,03,00,
11150578,000000FD,false,Rx,0,8,13,D1,1F,80,00,00,03,00,
11171044,000000FD,false,Rx,0,8,DC,D2,1F,80,00,00,03,00,
11191673,000000FD,false,Rx,0,8,A9,D3,1F,80,00,00,03,00,
11210645,000000FD,false,Rx,0,8,3F,D4,1F,80,00,00,03,00,
11231143,000000FD,false,Rx,0,8,A5,D5,1F,80,00,00,03,00,
11250690,000000FD,false,Rx,0,8,B7,D6,1F,80,00,00,03,00,
11271074,000000FD,false,Rx,0,8,8D,D7,1F,80,00,00,03,00,
11290780,000000FD,false,Rx,0,8,4A,D8,1F,80,00,00,03,00,
11312727,000000FD,false,Rx,0,8,78,D9,1F,80,00,00,03,00,
11330855,000000FD,false,Rx,0,8,34,DA,1F,80,00,00,03,00,
11351464,000000FD,false,Rx,0,8,1B,DB,1F,80,00,00,03,00,
11371541,000000FD,false,Rx,0,8,82,DC,1F,80,00,00,03,00,
11392533,000000FD,false,Rx,0,8,0B,DD,1F,80,00,00,03,00,
11411096,000000FD,false,Rx,0,8,F4,DE,1F,80,00,00,03,00,
11432332,000000FD,false,Rx,0,8,63,DF,1F,80,00,00,03,00,
11451261,000000FD,false,Rx,0,8,19,D0,1F,80,00,00,03,00,
11473339,000000FD,false,Rx,0,8,13,D1,1F,80,00,00,03,00,
11491117,000000FD,false,Rx,0,8,DC,D2,1F,80,00,00,03,00,
11513826,000000FD,false,Rx,0,8,A9,D3,1F,80,00,00,03,00,
11531099,000000FD,false,Rx,0,8,3F,D4,1F,80,00,00,03,00,
11553284,000000FD,false,Rx,0,8,A5,D5,1F,80,00,00,03,00,
11571457,000000FD,false,Rx,0,8,B7,D6,1F,80,00,00,03,00,
11592622,000000FD,false,Rx,0,8,8D,D7,1F,80,00,00,03,00,
11611057,000000FD,false,Rx,0,8,4A,D8,1F,80,00,00,03,00,
11631835,000000FD,false,Rx,0,8,78,D9,1F,80,00,00,03,00,
11651250,000000FD,false,Rx,0,8,34,DA,1F,80,00,00,03,00,
11671642,000000FD,false,Rx,0,8,1B,DB,1F,80,00,00,03,00,
11691140,000000FD,false,Rx,0,8,82,DC,1F,80,00,00,03,00,
11712339,000000FD,false,Rx,0,8,0B,DD,1F,80,00,00,03,00,
11731224,000000FD,false,Rx,0,8,F4,DE,1F,80,00,00,03,00,
11752163,000000FD,false,Rx,0,8,63,DF,1F,80,00,00,03,00,
11771548,000000FD,false,Rx,0,8,19,D0,1F,80,00,00,03,00,
11792065,000000FD,false,Rx,0,8,13,D1,1F,80,00,00,03,00,
11811498,000000FD,false,Rx,0,8,DC,D2,1F,80,00,00,03,00,
11832396,000000FD,false,Rx,0,8,A9,D3,1F,80,00,00,03,00,
11851630,000000FD,false,Rx,0,8,3F,D4,1F,80,00,00,03,00,
11872524,000000FD,false,Rx,0,8,A5,D5,1F,80,00,00,03,00,
11891558,000000FD,false,Rx,0,8,B7,D6,1F,80,00,00,03,00,
11912667,000000FD,false,Rx,0,8,8D,D7,1F,80,00,00,03,00,
11931857,000000FD,false,Rx,0,8,4A,D8,1F,80,00,00,03,00,
11952991,000000FD,false,Rx,0,8,78,D9,1F,80,00,00,03,00,
11971887,000000FD,false,Rx,0,8,34,DA,1F,80,00,00,03,00,
11992916,000000FD,false,Rx,0,8,1B,DB,1F,80,00,00,03,00,
12011926,000000FD,false,Rx,0,8,82,DC,1F,80,00,00,03,00,
12032705,000000FD,false,Rx,0,8,0B,DD,1F,80,00,00,03,00,
12051908,000000FD,false,Rx,0,8,F4,DE,1F,80,00,00,03,00,
12073336,000000FD,false,Rx,0,8,63,DF,1F,80,00,00,03,00,
12092413,000000FD,false,Rx,0,8,19,D0,1F,80,00,00,03,00,
12114342,000000FD,false,Rx,0,8,13,D1,1F,80,00,00,03,00,
12132052,000000FD,false,Rx,0,8,DC,D2,1F,80,00,00,03,00,
12153595,000000FD,false,Rx,0,8,A9,D3,1F,80,00,00,03,00,
12173220,000000FD,false,Rx,0,8,3F,D4,1F,80,00,00,03,00,
12193835,000000FD,false,Rx,0,8,A5,D5,1F,80,00,00,03,00,
12213132,000000FD,false,Rx,0,8,B7,D6,1F,80,00,00,03,00,
12233484,000000FD,false,Rx,0,8,8D,D7,1F,80,00,00,03,00,
12253184,000000FD,false,Rx,0,8,4A,D8,1F,80,00,00,03,00,
12274481,000000FD,false,Rx,0,8,78,D9,1F,80,00,00,03,00,
12293289,000000FD,false,Rx,0,8,34,DA,1F,80,00,00,03,00,
12314846,000000FD,false,Rx,0,8,1B,DB,1F,80,00,00,03,00,
12333171,000000FD,false,Rx,0,8,82,DC,1F,80,00,00,03,00,
12353537,000000FD,false,Rx,0,8,0B,DD,1F,80,00,00,03,00,
12373427,000000FD,false,Rx,0,8,F4,DE,1F,80,00,00,03,00,
12393878,000000FD,false,Rx,0,8,63,DF,1F,80,00,00,03,00,
12413336,000000FD,false,Rx,0,8,19,D0,1F,80,00,00,03,00,
12434678,000000FD,false,Rx,0,8,13,D1,1F,80,00,00,03,00,
12453478,000000FD,false,Rx,0,8,DC,D2,1F,80,00,00,03,00,
12474614,000000FD,false,Rx,0,8,A9,D3,1F,80,00,00,03,00,
12493126,000000FD,false,Rx,0,8,3F,D4,1F,80,00,00,03,00,
12514013,000000FD,false,Rx,0,8,A5,D5,1F,80,00,00,03,00,
12533268,000000FD,false,Rx,0,8,B7,D6,1F,80,00,00,03,00,
12554284,000000FD,false,Rx,0,8,8D,D7,1F,80,00,00,03,00,
12573463,000000FD,false,Rx,0,8,4A,D8,1F,80,00,00,03,00,
12593776,000000FD,false,Rx,0,8,78,D9,1F,80,00,00,03,00,
12613302,000000FD,false,Rx,0,8,34,DA,1F,80,00,00,03,00,
12634777,000000FD,false,Rx,0,8,1B,DB,1F,80,00,00,03,00,
12653322,000000FD,false,Rx,0,8,82,DC,1F,80,00,00,03,00,
12673548,000000FD,false,Rx,0,8,0B,DD,1F,80,00,00,03,00,
12693293,000000FD,false,Rx,0,8,F4,DE,1F,80,00,00,03,00,
12714272,000000FD,false,Rx,0,8,63,DF,1F,80,00,00,03,00,
12733431,000000FD,false,Rx,0,8,19,D0,1F,80,00,00,03,00,
12754423,000000FD,false,Rx,0,8,13,D1,1F,80,00,00,03,00,
12773497,000000FD,false,Rx,0,8,DC,D2,1F,80,00,00,03,00,
12793895,000000FD,false,Rx,0,8,A9,D3,1F,80,00,00,03,00,
12813710,000000FD,false,Rx,0,8,3F,D4,1F,80,00,00,03,00,
12834843,000000FD,false,Rx,0,8,A5,D5,1F,80,00,00,03,00,
12853702,000000FD,false,Rx,0,8,B7,D6,1F,80,00,00,03,00,
12874420,000000FD,false,Rx,0,8,8D,D7,1F,80,00,00,03,00,
12893725,000000FD,false,Rx,0,8,4A,D8,1F,80,00,00,03,00,
12914906,000000FD,false,Rx,0,8,78,D9,1F,80,00,00,03,00,
12934219,000000FD,false,Rx,0,8,34,DA,1F,80,00,00,03,00,
12954818,000000FD,false,Rx,0,8,1B,DB,1F,80,00,00,03,00,
12974249,000000FD,false,Rx,0,8,82,DC,1F,80,00,00,03,00,
12994647,000000FD,false,Rx,0,8,0B,DD,1F,80,00,00,03,00,
13014250,000000FD,false,Rx,0,8,F4,DE,1F,80,00,00,03,00,
13035045,000000FD,false,Rx,0,8,63,DF,1F,80,00,00,03,00,
13054323,000000FD,false,Rx,0,8,19,D0,1F,80,00,00,03,00,
13074698,000000FD,false,Rx,0,8,13,D1,1F,80,00,00,03,00,
13094360,000000FD,false,Rx,0,8,DC,D2,1F,80,00,00,03,00,
13115522,000000FD,false,Rx,0,8,A9,D3,1F,80,00,00,03,00,
13134495,000000FD,false,Rx,0,8,3F,D4,1F,80,00,00,03,00,
13155486,000000FD,false,Rx,0,8,A5,D5,1F,80,00,00,03,00,
13175162,000000FD,false,Rx,0,8,B7,D6,1F,80,00,00,03,00,
13195358,000000FD,false,Rx,0,8,8D,D7,1F,80,00,00,03,00,
13215222,000000FD,false,Rx,0,8,4A,D8,1F,80,00,00,03,00,
13235984,000000FD,false,Rx,0,8,78,D9,1F,80,00,00,03,00,
13255188,000000FD,false,Rx,0,8,34,DA,1F,80,00,00,03,00,
13275348,000000FD,false,Rx,0,8,1B,DB,1F,80,00,00,03,00,
13295444,000000FD,false,Rx,0,8,82,DC,1F,80,00,00,03,00,
13315910,000000FD,false,Rx,0,8,0B,DD,1F,80,00,00,03,00,
13335237,000000FD,false,Rx,0,8,F4,DE,1F,80,00,00,03,00,
13356179,000000FD,false,Rx,0,8,63,DF,1F,80,00,00,03,00,
13375509,000000FD,false,Rx,0,8,19,D0,1F,80,00,00,03,00,
13395289,000000FD,false,Rx,0,8,13,D1,1F,80,00,00,03,00,
13415908,000000FD,false,Rx,0,8,DC,D2,1F,80,00,00,03,00,
13435879,000000FD,false,Rx,0,8,A9,D3,1F,80,00,00,03,00,
13455233,000000FD,false,Rx,0,8,3F,D4,1F,80,00,00,03,00,
13475844,000000FD,false,Rx,0,8,A5,D5,1F,80,00,00,03,00,
13495212,000000FD,false,Rx,0,8,B7,D6,1F,80,00,00,03,00,
13515414,000000FD,false,Rx,0,8,8D,D7,1F,80,00,00,03,00,
13535310,000000FD,false,Rx,0,8,4A,D8,1F,80,00,00,03,00,
13555747,000000FD,false,Rx,0,8,78,D9,1F,80,00,00,03,00,
13575898,000000FD,false,Rx,0,8,34,DA,1F,80,00,00,03,00,
13596108,000000FD,false,Rx,0,8,1B,DB,1F,80,00,00,03,00,
13615540,000000FD,false,Rx,0,8,82,DC,1F,80,00,00,03,00,
13636566,000000FD,false,Rx,0,8,0B,DD,1F,80,00,00,03,00,
13655573,000000FD,false,Rx,0,8,F4,DE,1F,80,00,00,03,00,
13675956,000000FD,false,Rx,0,8,63,DF,1F,80,00,00,03,00,
13695861,000000FD,false,Rx,0,8,19,D0,1F,80,00,00,03,00,
13716904,000000FD,false,Rx,0,8,13,D1,1F,80,00,00,03,00,
13735724,000000FD,false,Rx,0,8,DC,D2,1F,80,00,00,03,00,
13756303,000000FD,false,Rx,0,8,A9,D3,1F,80,00,00,03,00,
13776165,000000FD,false,Rx,0,8,3F,D4,1F,80,00,00,03,00,
13796990,000000FD,false,Rx,0,8,A5,D5,1F,80,00,00,03,00,
13816218,000000FD,false,Rx,0,8,B7,D6,1F,80,00,00,03,00,
13837403,000000FD,false,Rx,0,8,8D,D7,1F,80,00,00,03,00,
13856220,000000FD,false,Rx,0,8,4A,D8,1F,80,00,00,03,00,
13876449,000000FD,false,Rx,0,8,78,D9,1F,80,00,00,03,00,
13896585,000000FD,false,Rx,0,8,34,DA,1F,80,00,00,03,00,
13917175,000000FD,false,Rx,0,8,1B,DB,1F,80,00,00,03,00,
13936096,000000FD,false,Rx,0,8,82,DC,1F,80,00,00,03,00,
13956645,000000FD,false,Rx,0,8,0B,DD,1F,80,00,00,03,00,
13976947,000000FD,false,Rx,0,8,F4,DE,1F,80,00,00,03,00,
13997159,000000FD,false,Rx,0,8,63,DF,1F,80,00,00,03,00,
14016280,000000FD,false,Rx,0,8,19,D0,1F,80,00,00,03,00,
14036729,000000FD,false,Rx,0,8,13,D1,1F,80,00,00,03,00,
14056309,000000FD,false,Rx,0,8,DC,D2,1F,80,00,00,03,00,
14076631,000000FD,false,Rx,0,8,A9,D3,1F,80,00,00,03,00,
14096849,000000FD,false,Rx,0,8,3F,D4,1F,80,00,00,03,00,
14116826,000000FD,false,Rx,0,8,A5,D5,1F,80,00,00,03,00,
14136381,000000FD,false,Rx,0,8,B7,D6,1F,80,00,00,03,00,
14156781,000000FD,false,Rx,0,8,8D,D7,1F,80,00,00,03,00,
14176576,000000FD,false,Rx,0,8,4A,D8,1F,80,00,00,03,00,
14197395,000000FD,false,Rx,0,8,78,D9,1F,80,00,00,03,00,
14216538,000000FD,false,Rx,0,8,34,DA,1F,80,00,00,03,00,
14237640,000000FD,false,Rx,0,8,1B,DB,1F,80,00,00,03,00,
14256723,000000FD,false,Rx,0,8,82,DC,1F,80,00,00,03,00,
14277610,000000FD,false,Rx,0,8,0B,DD,1F,80,00,00,03,00,
14296817,000000FD,false,Rx,0,8,F4,DE,1F,80,00,00,03,00,
14318009,000000FD,false,Rx,0,8,63,DF,1F,80,00,00,03,00,
14336866,000000FD,false,Rx,0,8,19,D0,1F,80,00,00,03,00,
14357505,000000FD,false,Rx,0,8,13,D1,1F,80,00,00,03,00,
14377180,000000FD,false,Rx,0,8,DC,D2,1F,80,00,00,03,00,
14397636,000000FD,false,Rx,0,8,A9,D3,1F,80,00,00,03,00,
14416988,000000FD,false,Rx,0,8,3F,D4,1F,80,00,00,03,00,
14438244,000000FD,false,Rx,0,8,A5,D5,1F,80,00,00,03,00,
14457059,000000FD,false,Rx,0,8,B7,D6,1F,80,00,00,03,00,
14477939,000000FD,false,Rx,0,8,8D,D7,1F,80,00,00,03,00,
14497255,000000FD,false,Rx,0,8,4A,D8,1F,80,00,00,03,00,
14518900,000000FD,false,Rx,0,8,78,D9,1F,80,00,00,03,00,
14537334,000000FD,false,Rx,0,8,34,DA,1F,80,00,00,03,00,
14559578,000000FD,false,Rx,0,8,1B,DB,1F,80,00,00,03,00,
14577529,000000FD,false,Rx,0,8,82,DC,1F,80,00,00,03,00,
14598630,000000FD,false,Rx,0,8,0B,DD,1F,80,00,00,03,00,
14617444,000000FD,false,Rx,0,8,F4,DE,1F,80,00,00,03,00,
14640787,000000FD,false,Rx,0,8,63,DF,1F,80,00,00,03,00,
14657567,000000FD,false,Rx,0,8,19,D0,1F,80,00,00,03,00,
14678017,000000FD,false,Rx,0,8,13,D1,1F,80,00,00,03,00,
14697622,000000FD,false,Rx,0,8,DC,D2,1F,80,00,00,03,00,
14720294,000000FD,false,Rx,0,8,A9,D3,1F,80,00,00,03,00,
14737700,000000FD,false,Rx,0,8,3F,D4,1F,80,00,00,03,00,
14759934,000000FD,false,Rx,0,8,A5,D5,1F,80,00,00,03,00,
14778152,000000FD,false,Rx,0,8,B7,D6,1F,80,00,00,03,00,
14798418,000000FD,false,Rx,0,8,8D,D7,1F,80,00,00,03,00,
14817890,000000FD,false,Rx,0,8,4A,D8,1F,80,00,00,03,00,
14839253,000000FD,false,Rx,0,8,78,D9,1F,80,00,00,03,00,
14858229,000000FD,false,Rx,0,8,34,DA,1F,80,00,00,03,00,
14878555,000000FD,false,Rx,0,8,1B,DB,1F,80,00,00,03,00,
14898114,000000FD,false,Rx,0,8,82,DC,1F,80,00,00,03,00,
14919202,000000FD,false,Rx,0,8,0B,DD,1F,80,00,00,03,00,
14938321,000000FD,false,Rx,0,8,F4,DE,1F,80,00,00,03,00,
14958839,000000FD,false,Rx,0,8,63,DF,1F,80,00,00,03,00,
14978174,000000FD,false,Rx,0,8,19,D0,1F,80,00,00,03,00,
14998952,000000FD,false,Rx,0,8,13,D1,1F,80,00,00,03,00,
15018557,000000FD,false,Rx,0,8,DC,D2,1F,80,00,00,03,00,
15039260,000000FD,false,Rx,0,8,A9,D3,1F,80,00,00,03,00,
15058452,000000FD,false,Rx,0,8,3F,D4,1F,80,00,00,03,00,
15078700,000000FD,false,Rx,0,8,A5,D5,1F,80,00,00,03,00,
15098381,000000FD,false,Rx,0,8,B7,D6,1F,80,00,00,03,00,
15119782,000000FD,false,Rx,0,8,8D,D7,1F,80,00,00,03,00,
15138641,000000FD,false,Rx,0,8,4A,D8,1F,80,00,00,03,00,
15159186,000000FD,false,Rx,0,8,78,D9,1F,80,00,00,03,00,
15178526,000000FD,false,Rx,0,8,34,DA,1F,80,00,00,03,00,
15199835,000000FD,false,Rx,0,8,1B,DB,1F,80,00,00,03,00,
15218988,000000FD,false,Rx,0,8,82,DC,1F,80,00,00,03,00,
15239249,000000FD,false,Rx,0,8,0B,DD,1F,80,00,00,03,00,
15258718,000000FD,false,Rx,0,8,F4,DE,1F,80,00,00,03,00,
15279210,000000FD,false,Rx,0,8,63,DF,1F,80,00,00,03,00,
15298915,000000FD,false,Rx,0,8,19,D0,1F,80,00,00,03,00,
15319548,000000FD,false,Rx,0,8,13,D1,1F,80,00,00,03,00,
15338905,000000FD,false,Rx,0,8,DC,D2,1F,80,00,00,03,00,
15359807,000000FD,false,Rx,0,8,A9,D3,1F,80,00,00,03,00,
15378964,000000FD,false,Rx,0,8,3F,D4,1F,80,00,00,03,00,
15400036,000000FD,false,Rx,0,8,A5,D5,1F,80,00,00,03,00,
15419268,000000FD,false,Rx,0,8,B7,D6,1F,80,00,00,03,00,
15440414,000000FD,false,Rx,0,8,8D,D7,1F,80,00,00,03,00,
15459317,000000FD,false,Rx,0,8,4A,D8,1F,80,00,00,03,00,
15479490,000000FD,false,Rx,0,8,78,D9,1F,80,00,00,03,00,
15499230,000000FD,false,Rx,0,8,34,DA,1F,80,00,00,03,00,
15520411,000000FD,false,Rx,0,8,1B,DB,1F,80,00,00,03,00,
15539414,000000FD,false,Rx,0,8,82,DC,1F,80,00,00,03,00,
15561200,000000FD,false,Rx,0,8,0B,DD,1F,80,00,00,03,00,
15579501,000000FD,false,Rx,0,8,F4,DE,1F,80,00,00,03,00,
15601351,000000FD,false,Rx,0,8,63,DF,1F,80,00,00,03,00,
15620869,000000FD,false,Rx,0,8,19,D0,1F,80,00,00,03,00,
15642230,000000FD,false,Rx,0,8,13,D1,1F,80,00,00,03,00,
15659586,000000FD,false,Rx,0,8,DC,D2,1F,80,00,00,03,00,
15680098,000000FD,false,Rx,0,8,A9,D3,1F,80,00,00,03,00,
15699713,000000FD,false,Rx,0,8,3F,D4,1F,80,00,00,03,00,
15720223,000000FD,false,Rx,0,8,A5,D5,1F,80,00,00,03,00,
15739760,000000FD,false,Rx,0,8,B7,D6,1F,80,00,00,03,00,
15760966,000000FD,false,Rx,0,8,8D,D7,1F,80,00,00,03,00,
15779827,000000FD,false,Rx,0,8,4A,D8,1F,80,00,00,03,00,
